Time [s],Packet ID,MOSI,MISO
-0.047152345,0,0x55,0x55
-0.047144340,0,0x6B,0x6B
-0.047136340,0,0x7D,0x7D
-0.047128335,0,0x91,0x91
-0.047120335,0,0x71,0x71
-0.047112335,0,0x04,0x04
-0.047104330,0,0x68,0x68
-0.047096330,0,0x7B,0x7B
-0.047088325,0,0x5F,0x5F
-0.047080325,0,0x7F,0x7F
-0.047072320,0,0x53,0x53
-0.047064320,0,0x53,0x53
-0.047056320,0,0x7B,0x7B
-0.047048315,0,0x40,0x40
-0.047040315,0,0x80,0x80
-0.047032310,0,0x60,0x60
-0.047024310,0,0x30,0x30
-0.047016310,0,0x10,0x10
-0.047008305,0,0x4A,0x4A
-0.047000305,0,0xEA,0xEA
-0.046992300,0,0xB4,0xB4
-0.046984300,0,0x42,0x42
-0.046976295,0,0x32,0x32
-0.046968295,0,0xA2,0xA2
-0.046960295,0,0xB4,0xB4
-0.046952290,0,0x22,0x22
-0.046944290,0,0xA2,0xA2
-0.046936285,0,0x6A,0x6A
-0.046928285,0,0x00,0x00
-0.046920285,0,0xC9,0x00
-0.046912280,0,0x0A,0x00
-0.046904280,0,0xF2,0x00
-0.000265060,1,0x55,0x55
-0.000257060,1,0x6B,0x6B
-0.000249060,1,0x7D,0x7D
-0.000241055,1,0x91,0x91
-0.000233055,1,0x71,0x71
-0.000225050,1,0x04,0x04
-0.000217050,1,0x68,0x68
-0.000209045,1,0x7B,0x7B
-0.000201045,1,0x5F,0x5F
-0.000193045,1,0x7F,0x7F
-0.000185040,1,0x53,0x53
-0.000177040,1,0x53,0x53
-0.000169035,1,0x7B,0x7B
-0.000161035,1,0x40,0x40
-0.000153030,1,0x80,0x80
-0.000145030,1,0x60,0x60
-0.000137030,1,0x30,0x30
-0.000129025,1,0x10,0x10
-0.000121025,1,0x4A,0x4A
-0.000113020,1,0xEA,0xEA
-0.000105020,1,0xB4,0xB4
-0.000097020,1,0x42,0x42
-0.000089015,1,0x32,0x32
-0.000081015,1,0xA2,0xA2
-0.000073010,1,0xB4,0xB4
-0.000065010,1,0x22,0x22
-0.000057005,1,0xA2,0xA2
-0.000049005,1,0x6A,0x6A
-0.000041005,1,0x00,0x00
-0.000033000,1,0xC9,0x00
-0.000025000,1,0x0A,0x00
-0.000016995,1,0xF2,0x00
0.047872550,2,0x55,0x55
0.047880550,2,0x6B,0x6B
0.047888550,2,0x7D,0x7D
0.047896555,2,0x91,0x91
0.047904555,2,0x71,0x71
0.047912560,2,0x04,0x04
0.047920560,2,0x68,0x68
0.047928560,2,0x7B,0x7B
0.047936565,2,0x5F,0x5F
0.047944565,2,0x7F,0x7F
0.047952570,2,0x53,0x53
0.047960570,2,0x53,0x53
0.047968570,2,0x7B,0x7B
0.047976575,2,0x40,0x40
0.047984575,2,0x80,0x80
0.047992580,2,0x60,0x60
0.048000580,2,0x30,0x30
0.048008585,2,0x10,0x10
0.048016585,2,0x4A,0x4A
0.048024585,2,0xEA,0xEA
0.048032590,2,0xB4,0xB4
0.048040590,2,0x42,0x42
0.048048595,2,0x32,0x32
0.048056595,2,0xA2,0xA2
0.048064600,2,0xB4,0xB4
0.048072600,2,0x22,0x22
0.048080600,2,0xA2,0xA2
0.048088605,2,0x6A,0x6A
0.048096605,2,0x00,0x00
0.048104610,2,0xC9,0x00
0.048112610,2,0x0A,0x00
0.048120610,2,0xF2,0x00
0.087883030,3,0x55,0x55
0.087891030,3,0x6B,0x6B
0.087899030,3,0x7D,0x7D
0.087907035,3,0x91,0x91
0.087915035,3,0x71,0x71
0.087923040,3,0x04,0x04
0.087931040,3,0x68,0x68
0.087939040,3,0x7B,0x7B
0.087947045,3,0x5F,0x5F
0.087955045,3,0x7F,0x7F
0.087963050,3,0x53,0x53
0.087971050,3,0x53,0x53
0.087979055,3,0x7B,0x7B
0.087987055,3,0x40,0x40
0.087995055,3,0x80,0x80
0.088003060,3,0x60,0x60
0.088011060,3,0x30,0x30
0.088019065,3,0x10,0x10
0.088027065,3,0x4A,0x4A
0.088035065,3,0xEA,0xEA
0.088043070,3,0xB4,0xB4
0.088051070,3,0x42,0x42
0.088059075,3,0x32,0x32
0.088067075,3,0xA2,0xA2
0.088075080,3,0xB4,0xB4
0.088083080,3,0x22,0x22
0.088091080,3,0xA2,0xA2
0.088099085,3,0x6A,0x6A
0.088107085,3,0x00,0x00
0.088115090,3,0xC9,0x00
0.088123090,3,0x0A,0x00
0.088131095,3,0xF2,0x00
0.137270965,4,0x55,0x55
0.137278965,4,0x6B,0x6B
0.137286970,4,0x7D,0x7D
0.137294970,4,0x91,0x91
0.137302970,4,0x71,0x71
0.137310975,4,0x04,0x04
0.137318975,4,0x68,0x68
0.137326980,4,0x7B,0x7B
0.137334980,4,0x5F,0x5F
0.137342985,4,0x7F,0x7F
0.137350985,4,0x53,0x53
0.137358985,4,0x53,0x53
0.137366990,4,0x7B,0x7B
0.137374990,4,0x40,0x40
0.137382995,4,0x80,0x80
0.137390995,4,0x60,0x60
0.137399000,4,0x30,0x30
0.137407000,4,0x10,0x10
0.137415000,4,0x4A,0x4A
0.137423005,4,0xEA,0xEA
0.137431005,4,0xB4,0xB4
0.137439010,4,0x42,0x42
0.137447010,4,0x32,0x32
0.137455010,4,0xA2,0xA2
0.137463015,4,0xB4,0xB4
0.137471015,4,0x22,0x22
0.137479020,4,0xA2,0xA2
0.137487020,4,0x6A,0x6A
0.137495025,4,0x00,0x00
0.137503025,4,0xC9,0x00
0.137511025,4,0x0A,0x00
0.137519030,4,0xF2,0x00
0.182282755,5,0x55,0x55
0.182290755,5,0x6B,0x6B
0.182298760,5,0x7D,0x7D
0.182306760,5,0x91,0x91
0.182314765,5,0x71,0x71
0.182322765,5,0x04,0x04
0.182330765,5,0x68,0x68
0.182338770,5,0x7B,0x7B
0.182346770,5,0x5F,0x5F
0.182354775,5,0x7F,0x7F
0.182362775,5,0x53,0x53
0.182370775,5,0x53,0x53
0.182378780,5,0x7B,0x7B
0.182386780,5,0x40,0x40
0.182394785,5,0x80,0x80
0.182402785,5,0x60,0x60
0.182410790,5,0x30,0x30
0.182418790,5,0x10,0x10
0.182426790,5,0x4A,0x4A
0.182434795,5,0xEA,0xEA
0.182442795,5,0xB4,0xB4
0.182450800,5,0x42,0x42
0.182458800,5,0x32,0x32
0.182466805,5,0xA2,0xA2
0.182474805,5,0xB4,0xB4
0.182482805,5,0x22,0x22
0.182490810,5,0xA2,0xA2
0.182498810,5,0x6A,0x6A
0.182506815,5,0x00,0x00
0.182514815,5,0xC9,0x00
0.182522815,5,0x0A,0x00
0.182530820,5,0xF2,0x00
0.229795200,6,0x55,0x55
0.229803200,6,0x6B,0x6B
0.229811205,6,0x7D,0x7D
0.229819205,6,0x91,0x91
0.229827210,6,0x71,0x71
0.229835210,6,0x04,0x04
0.229843210,6,0x68,0x68
0.229851215,6,0x7B,0x7B
0.229859215,6,0x5F,0x5F
0.229867220,6,0x7F,0x7F
0.229875220,6,0x53,0x53
0.229883225,6,0x53,0x53
0.229891225,6,0x7B,0x7B
0.229899225,6,0x40,0x40
0.229907230,6,0x80,0x80
0.229915230,6,0x60,0x60
0.229923235,6,0x30,0x30
0.229931235,6,0x10,0x10
0.229939240,6,0x4A,0x4A
0.229947240,6,0xEA,0xEA
0.229955240,6,0xB4,0xB4
0.229963245,6,0x42,0x42
0.229971245,6,0x32,0x32
0.229979250,6,0xA2,0xA2
0.229987250,6,0xB4,0xB4
0.229995250,6,0x22,0x22
0.230003255,6,0xA2,0xA2
0.230011255,6,0x6A,0x6A
0.230019260,6,0x00,0x00
0.230027260,6,0xC9,0x00
0.230035260,6,0x0A,0x00
0.230043265,6,0xF2,0x00
0.271056010,7,0x55,0x55
0.271064010,7,0x6B,0x6B
0.271072010,7,0x7D,0x7D
0.271080015,7,0x91,0x91
0.271088015,7,0x71,0x71
0.271096020,7,0x04,0x04
0.271104020,7,0x68,0x68
0.271112020,7,0x7B,0x7B
0.271120025,7,0x5F,0x5F
0.271128025,7,0x7F,0x7F
0.271136030,7,0x53,0x53
0.271144030,7,0x53,0x53
0.271152030,7,0x7B,0x7B
0.271160035,7,0x40,0x40
0.271168035,7,0x80,0x80
0.271176040,7,0x60,0x60
0.271184040,7,0x30,0x30
0.271192045,7,0x10,0x10
0.271200045,7,0x4A,0x4A
0.271208045,7,0xEA,0xEA
0.271216050,7,0xB4,0xB4
0.271224050,7,0x42,0x42
0.271232055,7,0x32,0x32
0.271240055,7,0xA2,0xA2
0.271248060,7,0xB4,0xB4
0.271256060,7,0x22,0x22
0.271264060,7,0xA2,0xA2
0.271272065,7,0x6A,0x6A
0.271280065,7,0x00,0x00
0.271288070,7,0xC9,0x00
0.271296070,7,0x0A,0x00
0.271304070,7,0xF2,0x00
0.311691650,8,0x55,0x55
0.311699655,8,0x6B,0x6B
0.311707655,8,0x7D,0x7D
0.311715660,8,0x91,0x91
0.311723660,8,0x71,0x71
0.311731660,8,0x04,0x04
0.311739665,8,0x68,0x68
0.311747665,8,0x7B,0x7B
0.311755670,8,0x5F,0x5F
0.311763670,8,0x7F,0x7F
0.311771670,8,0x53,0x53
0.311779675,8,0x53,0x53
0.311787675,8,0x7B,0x7B
0.311795680,8,0x40,0x40
0.311803680,8,0x80,0x80
0.311811685,8,0x60,0x60
0.311819685,8,0x30,0x30
0.311827685,8,0x10,0x10
0.311835690,8,0x4A,0x4A
0.311843690,8,0xEA,0xEA
0.311851695,8,0xB4,0xB4
0.311859695,8,0x42,0x42
0.311867700,8,0x32,0x32
0.311875700,8,0xA2,0xA2
0.311883700,8,0xB4,0xB4
0.311891705,8,0x22,0x22
0.311899705,8,0xA2,0xA2
0.311907710,8,0x6A,0x6A
0.311915710,8,0x00,0x00
0.311923710,8,0xC9,0x00
0.311931715,8,0x0A,0x00
0.311939715,8,0xF2,0x00
0.359829260,9,0x55,0x55
0.359837265,9,0x6B,0x6B
0.359845265,9,0x7D,0x7D
0.359853265,9,0x91,0x91
0.359861270,9,0x71,0x71
0.359869270,9,0x04,0x04
0.359877275,9,0x68,0x68
0.359885275,9,0x7B,0x7B
0.359893275,9,0x5F,0x5F
0.359901280,9,0x7F,0x7F
0.359909280,9,0x53,0x53
0.359917285,9,0x53,0x53
0.359925285,9,0x7B,0x7B
0.359933290,9,0x40,0x40
0.359941290,9,0x80,0x80
0.359949290,9,0x60,0x60
0.359957295,9,0x30,0x30
0.359965295,9,0x10,0x10
0.359973300,9,0x4A,0x4A
0.359981300,9,0xEA,0xEA
0.359989305,9,0xB4,0xB4
0.359997305,9,0x42,0x42
0.360005305,9,0x32,0x32
0.360013310,9,0xA2,0xA2
0.360021310,9,0xB4,0xB4
0.360029315,9,0x22,0x22
0.360037315,9,0xA2,0xA2
0.360045315,9,0x6A,0x6A
0.360053320,9,0x00,0x00
0.360061320,9,0xC9,0x00
0.360069325,9,0x0A,0x00
0.360077325,9,0xF2,0x00
0.409842360,10,0x55,0x55
0.409850365,10,0x6B,0x6B
0.409858365,10,0x7D,0x7D
0.409866365,10,0x91,0x91
0.409874370,10,0x71,0x71
0.409882370,10,0x04,0x04
0.409890375,10,0x68,0x68
0.409898375,10,0x7B,0x7B
0.409906380,10,0x5F,0x5F
0.409914380,10,0x7F,0x7F
0.409922380,10,0x53,0x53
0.409930385,10,0x53,0x53
0.409938385,10,0x7B,0x7B
0.409946390,10,0x40,0x40
0.409954390,10,0x80,0x80
0.409962390,10,0x60,0x60
0.409970395,10,0x30,0x30
0.409978395,10,0x10,0x10
0.409986400,10,0x4A,0x4A
0.409994400,10,0xEA,0xEA
0.410002405,10,0xB4,0xB4
0.410010405,10,0x42,0x42
0.410018405,10,0x32,0x32
0.410026410,10,0xA2,0xA2
0.410034410,10,0xB4,0xB4
0.410042415,10,0x22,0x22
0.410050415,10,0xA2,0xA2
0.410058420,10,0x6A,0x6A
0.410066420,10,0x00,0x00
0.410074420,10,0xC9,0x00
0.410082425,10,0x0A,0x00
0.410090425,10,0xF2,0x00
0.457979970,11,0x55,0x55
0.457987970,11,0x6B,0x6B
0.457995975,11,0x7D,0x7D
0.458003975,11,0x91,0x91
0.458011980,11,0x71,0x71
0.458019980,11,0x04,0x04
0.458027985,11,0x68,0x68
0.458035985,11,0x7B,0x7B
0.458043985,11,0x5F,0x5F
0.458051990,11,0x7F,0x7F
0.458059990,11,0x53,0x53
0.458067995,11,0x53,0x53
0.458075995,11,0x7B,0x7B
0.458083995,11,0x40,0x40
0.458092000,11,0x80,0x80
0.458100000,11,0x60,0x60
0.458108005,11,0x30,0x30
0.458116005,11,0x10,0x10
0.458124010,11,0x4A,0x4A
0.458132010,11,0xEA,0xEA
0.458140010,11,0xB4,0xB4
0.458148015,11,0x42,0x42
0.458156015,11,0x32,0x32
0.458164020,11,0xA2,0xA2
0.458172020,11,0xB4,0xB4
0.458180020,11,0x22,0x22
0.458188025,11,0xA2,0xA2
0.458196025,11,0x6A,0x6A
0.458204030,11,0x00,0x00
0.458212030,11,0xC9,0x00
0.458220035,11,0x0A,0x00
0.458228035,11,0xF2,0x00
0.504867250,12,0x55,0x55
0.504875255,12,0x6B,0x6B
0.504883255,12,0x7D,0x7D
0.504891260,12,0x91,0x91
0.504899260,12,0x71,0x71
0.504907260,12,0x04,0x04
0.504915265,12,0x68,0x68
0.504923265,12,0x7B,0x7B
0.504931270,12,0x5F,0x5F
0.504939270,12,0x7F,0x7F
0.504947270,12,0x53,0x53
0.504955275,12,0x53,0x53
0.504963275,12,0x7B,0x7B
0.504971280,12,0x40,0x40
0.504979280,12,0x80,0x80
0.504987285,12,0x60,0x60
0.504995285,12,0x30,0x30
0.505003285,12,0x10,0x10
0.505011290,12,0x4A,0x4A
0.505019290,12,0xEA,0xEA
0.505027295,12,0xB4,0xB4
0.505035295,12,0x42,0x42
0.505043300,12,0x32,0x32
0.505051300,12,0xA2,0xA2
0.505059300,12,0xB4,0xB4
0.505067305,12,0x22,0x22
0.505075305,12,0xA2,0xA2
0.505083310,12,0x6A,0x6A
0.505091310,12,0x00,0x00
0.505099310,12,0xC9,0x00
0.505107315,12,0x0A,0x00
0.505115315,12,0xF2,0x00
0.552379695,13,0x55,0x55
0.552387700,13,0x6B,0x6B
0.552395700,13,0x7D,0x7D
0.552403705,13,0x91,0x91
0.552411705,13,0x71,0x71
0.552419705,13,0x04,0x04
0.552427710,13,0x68,0x68
0.552435710,13,0x7B,0x7B
0.552443715,13,0x5F,0x5F
0.552451715,13,0x7F,0x7F
0.552459720,13,0x53,0x53
0.552467720,13,0x53,0x53
0.552475720,13,0x7B,0x7B
0.552483725,13,0x40,0x40
0.552491725,13,0x80,0x80
0.552499730,13,0x60,0x60
0.552507730,13,0x30,0x30
0.552515735,13,0x10,0x10
0.552523735,13,0x4A,0x4A
0.552531735,13,0xEA,0xEA
0.552539740,13,0xB4,0xB4
0.552547740,13,0x42,0x42
0.552555745,13,0x32,0x32
0.552563745,13,0xA2,0xA2
0.552571745,13,0xB4,0xB4
0.552579750,13,0x22,0x22
0.552587750,13,0xA2,0xA2
0.552595755,13,0x6A,0x6A
0.552603755,13,0x00,0x00
0.552611760,13,0xC9,0x00
0.552619760,13,0x0A,0x00
0.552627760,13,0xF2,0x00
0.599892140,14,0x55,0x55
0.599900145,14,0x6B,0x6B
0.599908145,14,0x7D,0x7D
0.599916150,14,0x91,0x91
0.599924150,14,0x71,0x71
0.599932155,14,0x04,0x04
0.599940155,14,0x68,0x68
0.599948155,14,0x7B,0x7B
0.599956160,14,0x5F,0x5F
0.599964160,14,0x7F,0x7F
0.599972165,14,0x53,0x53
0.599980165,14,0x53,0x53
0.599988165,14,0x7B,0x7B
0.599996170,14,0x40,0x40
0.600004170,14,0x80,0x80
0.600012175,14,0x60,0x60
0.600020175,14,0x30,0x30
0.600028180,14,0x10,0x10
0.600036180,14,0x4A,0x4A
0.600044180,14,0xEA,0xEA
0.600052185,14,0xB4,0xB4
0.600060185,14,0x42,0x42
0.600068190,14,0x32,0x32
0.600076190,14,0xA2,0xA2
0.600084195,14,0xB4,0xB4
0.600092195,14,0x22,0x22
0.600100195,14,0xA2,0xA2
0.600108200,14,0x6A,0x6A
0.600116200,14,0x00,0x00
0.600124205,14,0xC9,0x00
0.600132205,14,0x0A,0x00
0.600140205,14,0xF2,0x00
0.642403280,15,0x55,0x55
0.642411280,15,0x6B,0x6B
0.642419280,15,0x7D,0x7D
0.642427285,15,0x91,0x91
0.642435285,15,0x71,0x71
0.642443290,15,0x04,0x04
0.642451290,15,0x68,0x68
0.642459290,15,0x7B,0x7B
0.642467295,15,0x5F,0x5F
0.642475295,15,0x7F,0x7F
0.642483300,15,0x53,0x53
0.642491300,15,0x53,0x53
0.642499305,15,0x7B,0x7B
0.642507305,15,0x40,0x40
0.642515305,15,0x80,0x80
0.642523310,15,0x60,0x60
0.642531310,15,0x30,0x30
0.642539315,15,0x10,0x10
0.642547315,15,0x4A,0x4A
0.642555315,15,0xEA,0xEA
0.642563320,15,0xB4,0xB4
0.642571320,15,0x42,0x42
0.642579325,15,0x32,0x32
0.642587325,15,0xA2,0xA2
0.642595330,15,0xB4,0xB4
0.642603330,15,0x22,0x22
0.642611330,15,0xA2,0xA2
0.642619335,15,0x6A,0x6A
0.642627335,15,0x00,0x00
0.642635340,15,0xC9,0x00
0.642643340,15,0x0A,0x00
0.642651345,15,0xF2,0x00
0.685539575,16,0x55,0x55
0.685547580,16,0x6B,0x6B
0.685555580,16,0x7D,0x7D
0.685563585,16,0x91,0x91
0.685571585,16,0x71,0x71
0.685579585,16,0x04,0x04
0.685587590,16,0x68,0x68
0.685595590,16,0x7B,0x7B
0.685603595,16,0x5F,0x5F
0.685611595,16,0x7F,0x7F
0.685619595,16,0x53,0x53
0.685627600,16,0x53,0x53
0.685635600,16,0x7B,0x7B
0.685643605,16,0x40,0x40
0.685651605,16,0x80,0x80
0.685659610,16,0x60,0x60
0.685667610,16,0x30,0x30
0.685675610,16,0x10,0x10
0.685683615,16,0x4A,0x4A
0.685691615,16,0xEA,0xEA
0.685699620,16,0xB4,0xB4
0.685707620,16,0x42,0x42
0.685715625,16,0x32,0x32
0.685723625,16,0xA2,0xA2
0.685731625,16,0xB4,0xB4
0.685739630,16,0x22,0x22
0.685747630,16,0xA2,0xA2
0.685755635,16,0x6A,0x6A
0.685763635,16,0x00,0x00
0.685771640,16,0xC9,0x00
0.685779640,16,0x0A,0x00
0.685787640,16,0xF2,0x00
0.734927515,17,0x55,0x55
0.734935515,17,0x6B,0x6B
0.734943515,17,0x7D,0x7D
0.734951520,17,0x91,0x91
0.734959520,17,0x71,0x71
0.734967525,17,0x04,0x04
0.734975525,17,0x68,0x68
0.734983530,17,0x7B,0x7B
0.734991530,17,0x5F,0x5F
0.734999530,17,0x7F,0x7F
0.735007535,17,0x53,0x53
0.735015535,17,0x53,0x53
0.735023540,17,0x7B,0x7B
0.735031540,17,0x40,0x40
0.735039545,17,0x80,0x80
0.735047545,17,0x60,0x60
0.735055545,17,0x30,0x30
0.735063550,17,0x10,0x10
0.735071550,17,0x4A,0x4A
0.735079555,17,0xEA,0xEA
0.735087555,17,0xB4,0xB4
0.735095555,17,0x42,0x42
0.735103560,17,0x32,0x32
0.735111560,17,0xA2,0xA2
0.735119565,17,0xB4,0xB4
0.735127565,17,0x22,0x22
0.735135570,17,0xA2,0xA2
0.735143570,17,0x6A,0x6A
0.735151570,17,0x00,0x00
0.735159575,17,0xC9,0x00
0.735167575,17,0x0A,0x00
0.735175580,17,0xF2,0x00
0.783065120,18,0x55,0x55
0.783073125,18,0x6B,0x6B
0.783081125,18,0x7D,0x7D
0.783089130,18,0x91,0x91
0.783097130,18,0x71,0x71
0.783105135,18,0x04,0x04
0.783113135,18,0x68,0x68
0.783121135,18,0x7B,0x7B
0.783129140,18,0x5F,0x5F
0.783137140,18,0x7F,0x7F
0.783145145,18,0x53,0x53
0.783153145,18,0x53,0x53
0.783161145,18,0x7B,0x7B
0.783169150,18,0x40,0x40
0.783177150,18,0x80,0x80
0.783185155,18,0x60,0x60
0.783193155,18,0x30,0x30
0.783201160,18,0x10,0x10
0.783209160,18,0x4A,0x4A
0.783217160,18,0xEA,0xEA
0.783225165,18,0xB4,0xB4
0.783233165,18,0x42,0x42
0.783241170,18,0x32,0x32
0.783249170,18,0xA2,0xA2
0.783257175,18,0xB4,0xB4
0.783265175,18,0x22,0x22
0.783273175,18,0xA2,0xA2
0.783281180,18,0x6A,0x6A
0.783289180,18,0x00,0x00
0.783297185,18,0xC9,0x00
0.783305185,18,0x0A,0x00
0.783313185,18,0xF2,0x00
0.827451750,19,0x55,0x55
0.827459750,19,0x6B,0x6B
0.827467755,19,0x7D,0x7D
0.827475755,19,0x91,0x91
0.827483755,19,0x71,0x71
0.827491760,19,0x04,0x04
0.827499760,19,0x68,0x68
0.827507765,19,0x7B,0x7B
0.827515765,19,0x5F,0x5F
0.827523770,19,0x7F,0x7F
0.827531770,19,0x53,0x53
0.827539770,19,0x53,0x53
0.827547775,19,0x7B,0x7B
0.827555775,19,0x40,0x40
0.827563780,19,0x80,0x80
0.827571780,19,0x60,0x60
0.827579780,19,0x30,0x30
0.827587785,19,0x10,0x10
0.827595785,19,0x4A,0x4A
0.827603790,19,0xEA,0xEA
0.827611790,19,0xB4,0xB4
0.827619795,19,0x42,0x42
0.827627795,19,0x32,0x32
0.827635795,19,0xA2,0xA2
0.827643800,19,0xB4,0xB4
0.827651800,19,0x22,0x22
0.827659805,19,0xA2,0xA2
0.827667805,19,0x6A,0x6A
0.827675810,19,0x00,0x00
0.827683810,19,0xC9,0x00
0.827691810,19,0x0A,0x00
0.827699815,19,0xF2,0x00
0.872463540,20,0x55,0x55
0.872471540,20,0x6B,0x6B
0.872479545,20,0x7D,0x7D
0.872487545,20,0x91,0x91
0.872495545,20,0x71,0x71
0.872503550,20,0x04,0x04
0.872511550,20,0x68,0x68
0.872519555,20,0x7B,0x7B
0.872527555,20,0x5F,0x5F
0.872535560,20,0x7F,0x7F
0.872543560,20,0x53,0x53
0.872551560,20,0x53,0x53
0.872559565,20,0x7B,0x7B
0.872567565,20,0x40,0x40
0.872575570,20,0x80,0x80
0.872583570,20,0x60,0x60
0.872591575,20,0x30,0x30
0.872599575,20,0x10,0x10
0.872607575,20,0x4A,0x4A
0.872615580,20,0xEA,0xEA
0.872623580,20,0xB4,0xB4
0.872631585,20,0x42,0x42
0.872639585,20,0x32,0x32
0.872647590,20,0xA2,0xA2
0.872655590,20,0xB4,0xB4
0.872663590,20,0x22,0x22
0.872671595,20,0xA2,0xA2
0.872679595,20,0x6A,0x6A
0.872687600,20,0x00,0x00
0.872695600,20,0xC9,0x00
0.872703600,20,0x0A,0x00
0.872711605,20,0xF2,0x00
0.916225000,21,0x55,0x55
0.916233005,21,0x6B,0x6B
0.916241005,21,0x7D,0x7D
0.916249010,21,0x91,0x91
0.916257010,21,0x71,0x71
0.916265010,21,0x04,0x04
0.916273015,21,0x68,0x68
0.916281015,21,0x7B,0x7B
0.916289020,21,0x5F,0x5F
0.916297020,21,0x7F,0x7F
0.916305025,21,0x53,0x53
0.916313025,21,0x53,0x53
0.916321025,21,0x7B,0x7B
0.916329030,21,0x40,0x40
0.916337030,21,0x80,0x80
0.916345035,21,0x60,0x60
0.916353035,21,0x30,0x30
0.916361040,21,0x10,0x10
0.916369040,21,0x4A,0x4A
0.916377040,21,0xEA,0xEA
0.916385045,21,0xB4,0xB4
0.916393045,21,0x42,0x42
0.916401050,21,0x32,0x32
0.916409050,21,0xA2,0xA2
0.916417050,21,0xB4,0xB4
0.916425055,21,0x22,0x22
0.916433055,21,0xA2,0xA2
0.916441060,21,0x6A,0x6A
0.916449060,21,0x00,0x00
0.916457065,21,0xC9,0x00
0.916465065,21,0x0A,0x00
0.916473065,21,0xF2,0x00
